T5868 000:024.681   SEGGER J-Link V7.22b Log File
T5868 000:027.144   DLL Compiled: Jun 17 2021 17:22:49
T5868 000:027.198   Logging started @ 2024-08-16 06:53
T5868 000:027.218 - 27.227ms
T5868 000:027.816 JLINK_SetWarnOutHandler(...)
T5868 000:028.660 - 0.859ms
T5868 000:028.693 JLINK_OpenEx(...)
T5868 000:038.049   Firmware: J-Link V9 compiled May  7 2021 16:26:12
T5868 000:038.497   Firmware: J-Link V9 compiled May  7 2021 16:26:12
T5868 000:041.161   Decompressing FW timestamp took 1502 us
T5868 000:047.724   Hardware: V9.40
T5868 000:047.777   S/N: 123456789
T5868 000:047.816   OEM: SEGGER
T5868 000:047.844   Feature(s): GDB, RDI, FlashBP, FlashDL, JFlash, RDDI
T5868 000:050.117   TELNET listener socket opened on port 19021
T5868 000:050.526   WEBSRV Starting webserver
T5868 000:050.730   WEBSRV Webserver running on local port 19080
T5868 000:050.746 - 22.056ms returns "O.K."
T5868 000:051.134 JLINK_GetEmuCaps()
T5868 000:051.143 - 0.012ms returns 0xB9FF7BBF
T5868 000:051.590 JLINK_TIF_GetAvailable(...)
T5868 000:051.820 - 0.240ms
T5868 000:051.840 JLINK_SetErrorOutHandler(...)
T5868 000:051.847 - 0.010ms
T5868 000:052.356 JLINK_ExecCommand("ProjectFile = "F:\LQ_项目文件\6-清华冬-夏令营专项\STM32清华夏末暑期电子课程资料240816\2.STM32开发板资料\7.整车程序\项目1、光电循迹\LQ_STM32_Photoelectric\MDK\JLinkSettings.ini"", ...). 
T5868 000:089.716   Device "CORTEX-M3" selected.
T5868 000:090.172 - 37.827ms returns 0x00
T5868 000:091.488 JLINK_ExecCommand("Device = STM32F103C8", ...). 
T5868 000:095.175   Device "STM32F103C8" selected.
T5868 000:095.621 - 4.120ms returns 0x00
T5868 000:095.648 JLINK_GetHardwareVersion()
T5868 000:095.655 - 0.010ms returns 94000
T5868 000:095.664 JLINK_GetDLLVersion()
T5868 000:095.670 - 0.009ms returns 72202
T5868 000:095.678 JLINK_GetOEMString(...)
T5868 000:095.687 JLINK_GetFirmwareString(...)
T5868 000:095.699 - 0.016ms
T5868 000:125.747 JLINK_GetDLLVersion()
T5868 000:125.775 - 0.031ms returns 72202
T5868 000:125.785 JLINK_GetCompileDateTime()
T5868 000:125.791 - 0.010ms
T5868 000:133.859 JLINK_GetFirmwareString(...)
T5868 000:133.883 - 0.027ms
T5868 000:137.121 JLINK_GetHardwareVersion()
T5868 000:137.151 - 0.033ms returns 94000
T5868 000:139.877 JLINK_GetSN()
T5868 000:139.902 - 0.028ms returns 123456789
T5868 000:142.999 JLINK_GetOEMString(...)
T5868 000:149.298 JLINK_TIF_Select(JLINKARM_TIF_SWD)
T5868 000:151.324 - 2.038ms returns 0x00
T5868 000:151.345 JLINK_HasError()
T5868 000:152.087 JLINK_SetSpeed(10000)
T5868 000:152.164 - 0.084ms
T5868 000:152.179 JLINK_GetId()
T5868 000:156.062   InitTarget() start
T5868 000:156.089    J-Link Script File: Executing InitTarget()
T5868 000:166.292   InitTarget() end
T5868 000:169.857   Found SW-DP with ID 0x1BA01477
T5868 000:175.865   DPIDR: 0x1BA01477
T5868 000:178.363   Scanning AP map to find all available APs
T5868 000:182.073   AP[1]: Stopped AP scan as end of AP map has been reached
T5868 000:184.372   AP[0]: AHB-AP (IDR: 0x14770011)
T5868 000:187.632   Iterating through AP map to find AHB-AP to use
T5868 000:191.737   AP[0]: Core found
T5868 000:194.522   AP[0]: AHB-AP ROM base: 0xE00FF000
T5868 000:198.906   CPUID register: 0x411FC231. Implementer code: 0x41 (ARM)
T5868 000:201.130   Found Cortex-M3 r1p1, Little endian.
T5868 000:302.777   -- Max. mem block: 0x00010AA0
T5868 000:303.052   CPU_ReadMem(4 bytes @ 0xE000EDF0)
T5868 000:303.771   CPU_WriteMem(4 bytes @ 0xE000EDF0)
T5868 000:304.269   CPU_ReadMem(4 bytes @ 0xE0002000)
T5868 000:307.203   FPUnit: 6 code (BP) slots and 2 literal slots
T5868 000:307.240   CPU_ReadMem(4 bytes @ 0xE000EDFC)
T5868 000:307.661   CPU_WriteMem(4 bytes @ 0xE000EDFC)
T5868 000:308.126   CPU_ReadMem(4 bytes @ 0xE0001000)
T5868 000:308.538   CPU_WriteMem(4 bytes @ 0xE0001000)
T5868 000:309.232   CPU_ReadMem(4 bytes @ 0xE000ED88)
T5868 000:309.803   CPU_WriteMem(4 bytes @ 0xE000ED88)
T5868 000:310.602   CPU_ReadMem(4 bytes @ 0xE000ED88)
T5868 000:311.116   CPU_WriteMem(4 bytes @ 0xE000ED88)
T5868 000:314.099   CoreSight components:
T5868 000:316.509   ROMTbl[0] @ E00FF000
T5868 000:316.541   CPU_ReadMem(64 bytes @ 0xE00FF000)
T5868 000:317.432   CPU_ReadMem(32 bytes @ 0xE000EFE0)
T5868 000:322.183   ROMTbl[0][0]: E000E000, CID: B105E00D, PID: 001BB000 SCS
T5868 000:322.217   CPU_ReadMem(32 bytes @ 0xE0001FE0)
T5868 000:325.215   ROMTbl[0][1]: E0001000, CID: B105E00D, PID: 001BB002 DWT
T5868 000:325.248   CPU_ReadMem(32 bytes @ 0xE0002FE0)
T5868 000:328.261   ROMTbl[0][2]: E0002000, CID: B105E00D, PID: 000BB003 FPB
T5868 000:328.294   CPU_ReadMem(32 bytes @ 0xE0000FE0)
T5868 000:331.312   ROMTbl[0][3]: E0000000, CID: B105E00D, PID: 001BB001 ITM
T5868 000:331.344   CPU_ReadMem(32 bytes @ 0xE0040FE0)
T5868 000:335.241   ROMTbl[0][4]: E0040000, CID: B105900D, PID: 001BB923 TPIU-Lite
T5868 000:336.675 - 184.516ms returns 0x1BA01477
T5868 000:336.713 JLINK_GetDLLVersion()
T5868 000:336.731 - 0.021ms returns 72202
T5868 000:336.745 JLINK_CORE_GetFound()
T5868 000:336.759 - 0.020ms returns 0x30000FF
T5868 000:336.774 JLINK_GetDebugInfo(0x100 = JLINKARM_ROM_TABLE_ADDR_INDEX)
T5868 000:336.784   Value=0xE00FF000
T5868 000:336.793 - 0.021ms returns 0
T5868 000:339.324 JLINK_GetDebugInfo(0x100 = JLINKARM_ROM_TABLE_ADDR_INDEX)
T5868 000:339.351   Value=0xE00FF000
T5868 000:339.360 - 0.040ms returns 0
T5868 000:339.369 JLINK_GetDebugInfo(0x101 = JLINKARM_DEBUG_INFO_ETM_ADDR_INDEX)
T5868 000:339.376   Value=0x00000000
T5868 000:339.385 - 0.019ms returns 0
T5868 000:339.407 JLINK_ReadMemEx(0xE0041FF0, 0x10 Bytes, Flags = 0x02000004)
T5868 000:339.441   CPU_ReadMem(16 bytes @ 0xE0041FF0)
T5868 000:340.014   Data:  00 00 00 00 00 00 00 00 00 00 00 00 00 00 00 00
T5868 000:340.031 - 0.627ms returns 16 (0x10)
T5868 000:340.042 JLINK_GetDebugInfo(0x102 = JLINKARM_DEBUG_INFO_MTB_ADDR_INDEX)
T5868 000:340.050   Value=0x00000000
T5868 000:340.059 - 0.019ms returns 0
T5868 000:340.067 JLINK_GetDebugInfo(0x103 = JLINKARM_DEBUG_INFO_TPIU_ADDR_INDEX)
T5868 000:340.074   Value=0xE0040000
T5868 000:340.083 - 0.019ms returns 0
T5868 000:340.091 JLINK_GetDebugInfo(0x104 = JLINKARM_DEBUG_INFO_ITM_ADDR_INDEX)
T5868 000:340.098   Value=0xE0000000
T5868 000:340.107 - 0.018ms returns 0
T5868 000:340.114 JLINK_GetDebugInfo(0x105 = JLINKARM_DEBUG_INFO_DWT_ADDR_INDEX)
T5868 000:340.121   Value=0xE0001000
T5868 000:340.130 - 0.018ms returns 0
T5868 000:340.138 JLINK_GetDebugInfo(0x106 = JLINKARM_DEBUG_INFO_FPB_ADDR_INDEX)
T5868 000:340.144   Value=0xE0002000
T5868 000:340.153 - 0.018ms returns 0
T5868 000:340.161 JLINK_GetDebugInfo(0x107 = JLINKARM_DEBUG_INFO_NVIC_ADDR_INDEX)
T5868 000:340.168   Value=0xE000E000
T5868 000:340.177 - 0.018ms returns 0
T5868 000:340.185 JLINK_GetDebugInfo(0x10C = JLINKARM_DEBUG_INFO_DBG_ADDR_INDEX)
T5868 000:340.191   Value=0xE000EDF0
T5868 000:340.200 - 0.018ms returns 0
T5868 000:340.208 JLINK_GetDebugInfo(0x01 = Unknown)
T5868 000:340.215   Value=0x00000000
T5868 000:340.224 - 0.018ms returns 0
T5868 000:340.232 JLINK_ReadMemU32(0xE000ED00, 0x1 Items)
T5868 000:340.244   CPU_ReadMem(4 bytes @ 0xE000ED00)
T5868 000:340.678   Data:  31 C2 1F 41
T5868 000:340.694   Debug reg: CPUID
T5868 000:340.704 - 0.475ms returns 1 (0x1)
T5868 000:340.715 JLINK_GetDebugInfo(0x10F = JLINKARM_DEBUG_INFO_HAS_CORTEX_M_SECURITY_EXT_INDEX)
T5868 000:340.722   Value=0x00000000
T5868 000:340.731 - 0.019ms returns 0
T5868 000:340.740 JLINK_HasError()
T5868 000:340.749 JLINK_SetResetType(JLINKARM_CM3_RESET_TYPE_NORMAL)
T5868 000:340.756 - 0.010ms returns JLINKARM_CM3_RESET_TYPE_NORMAL
T5868 000:340.764 JLINK_Reset()
T5868 000:340.790   CPU is running
T5868 000:340.802   CPU_WriteMem(4 bytes @ 0xE000EDF0)
T5868 000:341.278   CPU is running
T5868 000:341.304   CPU_WriteMem(4 bytes @ 0xE000EDFC)
T5868 000:344.251   Reset: Halt core after reset via DEMCR.VC_CORERESET.
T5868 000:347.539   Reset: Reset device via AIRCR.SYSRESETREQ.
T5868 000:347.570   CPU is running
T5868 000:347.584   CPU_WriteMem(4 bytes @ 0xE000ED0C)
T5868 000:400.774   CPU_ReadMem(4 bytes @ 0xE000EDF0)
T5868 000:401.549   CPU_ReadMem(4 bytes @ 0xE000EDF0)
T5868 000:402.142   CPU is running
T5868 000:402.172   CPU_WriteMem(4 bytes @ 0xE000EDF0)
T5868 000:402.637   CPU is running
T5868 000:402.666   CPU_WriteMem(4 bytes @ 0xE000EDFC)
T5868 000:409.072   CPU_ReadMem(4 bytes @ 0xE000EDF0)
T5868 000:413.415   CPU_WriteMem(4 bytes @ 0xE0002000)
T5868 000:413.842   CPU_ReadMem(4 bytes @ 0xE000EDFC)
T5868 000:414.399   CPU_ReadMem(4 bytes @ 0xE0001000)
T5868 000:414.945 - 74.191ms
T5868 000:414.977 JLINK_Halt()
T5868 000:414.992 - 0.019ms returns 0x00
T5868 000:415.005 JLINK_ReadMemU32(0xE000EDF0, 0x1 Items)
T5868 000:415.020   CPU_ReadMem(4 bytes @ 0xE000EDF0)
T5868 000:415.544   Data:  03 00 03 00
T5868 000:415.558   Debug reg: DHCSR
T5868 000:415.567 - 0.565ms returns 1 (0x1)
T5868 000:415.580 JLINK_WriteU32_64(0xE000EDF0, 0xA05F0003)
T5868 000:415.593   Debug reg: DHCSR
T5868 000:415.858   CPU_WriteMem(4 bytes @ 0xE000EDF0)
T5868 000:416.411 - 0.837ms returns 0 (0x00000000)
T5868 000:416.428 JLINK_WriteU32_64(0xE000EDFC, 0x01000000)
T5868 000:416.436   Debug reg: DEMCR
T5868 000:416.450   CPU_WriteMem(4 bytes @ 0xE000EDFC)
T5868 000:416.974 - 0.555ms returns 0 (0x00000000)
T5868 000:426.334 JLINK_GetHWStatus(...)
T5868 000:426.625 - 0.301ms returns 0
T5868 000:433.728 JLINK_GetNumBPUnits(Type = 0xFFFFFF00)
T5868 000:433.754 - 0.030ms returns 0x06
T5868 000:433.763 JLINK_GetNumBPUnits(Type = 0xF0)
T5868 000:433.770 - 0.010ms returns 0x2000
T5868 000:433.778 JLINK_GetNumWPUnits()
T5868 000:433.784 - 0.009ms returns 4
T5868 000:441.115 JLINK_GetSpeed()
T5868 000:441.139 - 0.027ms returns 6000
T5868 000:446.918 JLINK_ReadMemU32(0xE000E004, 0x1 Items)
T5868 000:446.954   CPU_ReadMem(4 bytes @ 0xE000E004)
T5868 000:447.491   Data:  01 00 00 00
T5868 000:447.508 - 0.593ms returns 1 (0x1)
T5868 000:447.519 JLINK_ReadMemU32(0xE000E004, 0x1 Items)
T5868 000:447.531   CPU_ReadMem(4 bytes @ 0xE000E004)
T5868 000:448.066   Data:  01 00 00 00
T5868 000:448.086 - 0.572ms returns 1 (0x1)
T5868 000:448.101 JLINK_WriteMemEx(0xE0001000, 0x0000001C Bytes, Flags = 0x02000004)
T5868 000:448.109   Data:  01 00 00 00 00 00 00 00 00 00 00 00 00 00 00 00 ...
T5868 000:448.126   CPU_WriteMem(28 bytes @ 0xE0001000)
T5868 000:448.807 - 0.714ms returns 0x1C
T5868 000:448.826 JLINK_Halt()
T5868 000:448.833 - 0.010ms returns 0x00
T5868 000:448.842 JLINK_IsHalted()
T5868 000:448.849 - 0.011ms returns TRUE
T5868 000:453.695 JLINK_WriteMem(0x20000000, 0x164 Bytes, ...)
T5868 000:453.713   Data:  00 BE 0A E0 0D 78 2D 06 68 40 08 24 40 00 00 D3 ...
T5868 000:453.968   CPU_WriteMem(356 bytes @ 0x20000000)
T5868 000:456.616 - 2.939ms returns 0x164
T5868 000:456.677 JLINK_HasError()
T5868 000:456.688 JLINK_WriteReg(R0, 0x08000000)
T5868 000:456.699 - 0.014ms returns 0
T5868 000:456.708 JLINK_WriteReg(R1, 0x007A1200)
T5868 000:456.715 - 0.010ms returns 0
T5868 000:456.723 JLINK_WriteReg(R2, 0x00000001)
T5868 000:456.730 - 0.009ms returns 0
T5868 000:456.738 JLINK_WriteReg(R3, 0x00000000)
T5868 000:456.744 - 0.009ms returns 0
T5868 000:456.752 JLINK_WriteReg(R4, 0x00000000)
T5868 000:456.759 - 0.009ms returns 0
T5868 000:456.767 JLINK_WriteReg(R5, 0x00000000)
T5868 000:456.774 - 0.009ms returns 0
T5868 000:456.781 JLINK_WriteReg(R6, 0x00000000)
T5868 000:456.788 - 0.009ms returns 0
T5868 000:456.796 JLINK_WriteReg(R7, 0x00000000)
T5868 000:456.803 - 0.009ms returns 0
T5868 000:456.811 JLINK_WriteReg(R8, 0x00000000)
T5868 000:456.835 - 0.027ms returns 0
T5868 000:456.843 JLINK_WriteReg(R9, 0x20000160)
T5868 000:456.850 - 0.009ms returns 0
T5868 000:456.858 JLINK_WriteReg(R10, 0x00000000)
T5868 000:456.865 - 0.010ms returns 0
T5868 000:456.873 JLINK_WriteReg(R11, 0x00000000)
T5868 000:456.879 - 0.009ms returns 0
T5868 000:456.887 JLINK_WriteReg(R12, 0x00000000)
T5868 000:456.894 - 0.009ms returns 0
T5868 000:456.902 JLINK_WriteReg(R13 (SP), 0x20001000)
T5868 000:456.909 - 0.010ms returns 0
T5868 000:456.917 JLINK_WriteReg(R14, 0x20000001)
T5868 000:456.924 - 0.009ms returns 0
T5868 000:456.932 JLINK_WriteReg(R15 (PC), 0x20000038)
T5868 000:456.954 - 0.027ms returns 0
T5868 000:456.965 JLINK_WriteReg(XPSR, 0x01000000)
T5868 000:456.972 - 0.010ms returns 0
T5868 000:456.980 JLINK_WriteReg(MSP, 0x20001000)
T5868 000:456.986 - 0.009ms returns 0
T5868 000:456.994 JLINK_WriteReg(PSP, 0x20001000)
T5868 000:457.001 - 0.010ms returns 0
T5868 000:457.009 JLINK_WriteReg(CFBP, 0x00000000)
T5868 000:457.016 - 0.009ms returns 0
T5868 000:457.024 JLINK_SetBPEx(Addr = 0x20000000, Type = 0xFFFFFFF2)
T5868 000:457.036   CPU_ReadMem(2 bytes @ 0x20000000)
T5868 000:457.615 - 0.600ms returns 0x00000001
T5868 000:457.632 JLINK_Go()
T5868 000:457.642   CPU_WriteMem(2 bytes @ 0x20000000)
T5868 000:458.113   CPU_ReadMem(4 bytes @ 0xE0001000)
T5868 000:458.640   CPU_WriteMem(4 bytes @ 0xE0002008)
T5868 000:458.656   CPU_WriteMem(4 bytes @ 0xE000200C)
T5868 000:458.667   CPU_WriteMem(4 bytes @ 0xE0002010)
T5868 000:458.677   CPU_WriteMem(4 bytes @ 0xE0002014)
T5868 000:458.686   CPU_WriteMem(4 bytes @ 0xE0002018)
T5868 000:458.696   CPU_WriteMem(4 bytes @ 0xE000201C)
T5868 000:460.528   CPU_WriteMem(4 bytes @ 0xE0001004)
T5868 000:464.509 - 6.891ms
T5868 000:464.533 JLINK_IsHalted()
T5868 000:468.120   CPU_ReadMem(2 bytes @ 0x20000000)
T5868 000:468.635 - 4.109ms returns TRUE
T5868 000:468.654 JLINK_ReadReg(R15 (PC))
T5868 000:468.663 - 0.012ms returns 0x20000000
T5868 000:468.672 JLINK_ClrBPEx(BPHandle = 0x00000001)
T5868 000:468.679 - 0.010ms returns 0x00
T5868 000:468.759 JLINK_ReadReg(R0)
T5868 000:468.772 - 0.016ms returns 0x00000000
T5868 000:469.748 JLINK_HasError()
T5868 000:469.785 JLINK_WriteReg(R0, 0x08000000)
T5868 000:469.802 - 0.022ms returns 0
T5868 000:469.816 JLINK_WriteReg(R1, 0x007A1200)
T5868 000:469.828 - 0.017ms returns 0
T5868 000:469.842 JLINK_WriteReg(R2, 0x00000001)
T5868 000:469.856 - 0.017ms returns 0
T5868 000:469.866 JLINK_WriteReg(R3, 0x00000000)
T5868 000:469.872 - 0.010ms returns 0
T5868 000:469.880 JLINK_WriteReg(R4, 0x00000000)
T5868 000:469.887 - 0.009ms returns 0
T5868 000:469.895 JLINK_WriteReg(R5, 0x00000000)
T5868 000:469.902 - 0.009ms returns 0
T5868 000:469.910 JLINK_WriteReg(R6, 0x00000000)
T5868 000:469.916 - 0.009ms returns 0
T5868 000:469.924 JLINK_WriteReg(R7, 0x00000000)
T5868 000:469.931 - 0.009ms returns 0
T5868 000:469.939 JLINK_WriteReg(R8, 0x00000000)
T5868 000:469.946 - 0.010ms returns 0
T5868 000:469.954 JLINK_WriteReg(R9, 0x20000160)
T5868 000:469.960 - 0.009ms returns 0
T5868 000:469.968 JLINK_WriteReg(R10, 0x00000000)
T5868 000:469.975 - 0.010ms returns 0
T5868 000:469.983 JLINK_WriteReg(R11, 0x00000000)
T5868 000:469.989 - 0.009ms returns 0
T5868 000:469.997 JLINK_WriteReg(R12, 0x00000000)
T5868 000:470.004 - 0.009ms returns 0
T5868 000:470.012 JLINK_WriteReg(R13 (SP), 0x20001000)
T5868 000:470.019 - 0.010ms returns 0
T5868 000:470.027 JLINK_WriteReg(R14, 0x20000001)
T5868 000:470.034 - 0.009ms returns 0
T5868 000:470.042 JLINK_WriteReg(R15 (PC), 0x2000007C)
T5868 000:470.049 - 0.011ms returns 0
T5868 000:470.058 JLINK_WriteReg(XPSR, 0x01000000)
T5868 000:470.066 - 0.010ms returns 0
T5868 000:470.113 JLINK_WriteReg(MSP, 0x20001000)
T5868 000:470.142 - 0.037ms returns 0
T5868 000:470.160 JLINK_WriteReg(PSP, 0x20001000)
T5868 000:470.172 - 0.015ms returns 0
T5868 000:470.181 JLINK_WriteReg(CFBP, 0x00000000)
T5868 000:470.188 - 0.010ms returns 0
T5868 000:470.196 JLINK_SetBPEx(Addr = 0x20000000, Type = 0xFFFFFFF2)
T5868 000:470.206 - 0.013ms returns 0x00000002
T5868 000:470.215 JLINK_Go()
T5868 000:470.232   CPU_ReadMem(4 bytes @ 0xE0001000)
T5868 000:474.241 - 4.042ms
T5868 000:474.269 JLINK_IsHalted()
T5868 000:474.725 - 0.472ms returns FALSE
T5868 000:474.755 JLINK_HasError()
T5868 000:490.244 JLINK_IsHalted()
T5868 000:490.682 - 0.453ms returns FALSE
T5868 000:490.706 JLINK_HasError()
T5868 000:492.194 JLINK_IsHalted()
T5868 000:492.754 - 0.567ms returns FALSE
T5868 000:492.769 JLINK_HasError()
T5868 000:494.249 JLINK_IsHalted()
T5868 000:494.804 - 0.563ms returns FALSE
T5868 000:494.821 JLINK_HasError()
T5868 000:497.198 JLINK_IsHalted()
T5868 000:500.819   CPU_ReadMem(2 bytes @ 0x20000000)
T5868 000:501.282 - 4.097ms returns TRUE
T5868 000:501.304 JLINK_ReadReg(R15 (PC))
T5868 000:501.315 - 0.014ms returns 0x20000000
T5868 000:501.324 JLINK_ClrBPEx(BPHandle = 0x00000002)
T5868 000:501.331 - 0.010ms returns 0x00
T5868 000:501.340 JLINK_ReadReg(R0)
T5868 000:501.347 - 0.010ms returns 0x00000000
T5868 000:553.890 JLINK_HasError()
T5868 000:553.919 JLINK_WriteReg(R0, 0x00000001)
T5868 000:553.931 - 0.015ms returns 0
T5868 000:553.940 JLINK_WriteReg(R1, 0x007A1200)
T5868 000:553.947 - 0.010ms returns 0
T5868 000:553.955 JLINK_WriteReg(R2, 0x00000001)
T5868 000:553.962 - 0.010ms returns 0
T5868 000:553.970 JLINK_WriteReg(R3, 0x00000000)
T5868 000:553.977 - 0.009ms returns 0
T5868 000:553.985 JLINK_WriteReg(R4, 0x00000000)
T5868 000:553.992 - 0.010ms returns 0
T5868 000:553.999 JLINK_WriteReg(R5, 0x00000000)
T5868 000:554.006 - 0.009ms returns 0
T5868 000:554.014 JLINK_WriteReg(R6, 0x00000000)
T5868 000:554.021 - 0.009ms returns 0
T5868 000:554.029 JLINK_WriteReg(R7, 0x00000000)
T5868 000:554.035 - 0.009ms returns 0
T5868 000:554.043 JLINK_WriteReg(R8, 0x00000000)
T5868 000:554.050 - 0.010ms returns 0
T5868 000:554.058 JLINK_WriteReg(R9, 0x20000160)
T5868 000:554.064 - 0.009ms returns 0
T5868 000:554.084 JLINK_WriteReg(R10, 0x00000000)
T5868 000:554.095 - 0.015ms returns 0
T5868 000:554.106 JLINK_WriteReg(R11, 0x00000000)
T5868 000:554.116 - 0.013ms returns 0
T5868 000:554.124 JLINK_WriteReg(R12, 0x00000000)
T5868 000:554.131 - 0.010ms returns 0
T5868 000:554.139 JLINK_WriteReg(R13 (SP), 0x20001000)
T5868 000:554.147 - 0.010ms returns 0
T5868 000:554.155 JLINK_WriteReg(R14, 0x20000001)
T5868 000:554.161 - 0.009ms returns 0
T5868 000:554.169 JLINK_WriteReg(R15 (PC), 0x2000006A)
T5868 000:554.176 - 0.010ms returns 0
T5868 000:554.184 JLINK_WriteReg(XPSR, 0x01000000)
T5868 000:554.191 - 0.009ms returns 0
T5868 000:554.198 JLINK_WriteReg(MSP, 0x20001000)
T5868 000:554.205 - 0.009ms returns 0
T5868 000:554.213 JLINK_WriteReg(PSP, 0x20001000)
T5868 000:554.220 - 0.009ms returns 0
T5868 000:554.228 JLINK_WriteReg(CFBP, 0x00000000)
T5868 000:554.234 - 0.009ms returns 0
T5868 000:554.242 JLINK_SetBPEx(Addr = 0x20000000, Type = 0xFFFFFFF2)
T5868 000:554.251 - 0.011ms returns 0x00000003
T5868 000:554.259 JLINK_Go()
T5868 000:554.275   CPU_ReadMem(4 bytes @ 0xE0001000)
T5868 000:558.266 - 4.016ms
T5868 000:558.283 JLINK_IsHalted()
T5868 000:561.810   CPU_ReadMem(2 bytes @ 0x20000000)
T5868 000:562.310 - 4.034ms returns TRUE
T5868 000:562.325 JLINK_ReadReg(R15 (PC))
T5868 000:562.334 - 0.012ms returns 0x20000000
T5868 000:562.343 JLINK_ClrBPEx(BPHandle = 0x00000003)
T5868 000:562.350 - 0.010ms returns 0x00
T5868 000:562.359 JLINK_ReadReg(R0)
T5868 000:562.366 - 0.010ms returns 0x00000000
T5868 000:567.953 JLINK_WriteMem(0x20000000, 0x164 Bytes, ...)
T5868 000:567.971   Data:  00 BE 0A E0 0D 78 2D 06 68 40 08 24 40 00 00 D3 ...
T5868 000:567.992   CPU_WriteMem(356 bytes @ 0x20000000)
T5868 000:570.619 - 2.686ms returns 0x164
T5868 000:570.753 JLINK_HasError()
T5868 000:570.770 JLINK_WriteReg(R0, 0x08000000)
T5868 000:570.780 - 0.014ms returns 0
T5868 000:570.789 JLINK_WriteReg(R1, 0x007A1200)
T5868 000:570.796 - 0.010ms returns 0
T5868 000:570.805 JLINK_WriteReg(R2, 0x00000002)
T5868 000:570.812 - 0.010ms returns 0
T5868 000:570.820 JLINK_WriteReg(R3, 0x00000000)
T5868 000:570.827 - 0.010ms returns 0
T5868 000:570.835 JLINK_WriteReg(R4, 0x00000000)
T5868 000:570.842 - 0.010ms returns 0
T5868 000:570.850 JLINK_WriteReg(R5, 0x00000000)
T5868 000:570.857 - 0.010ms returns 0
T5868 000:570.865 JLINK_WriteReg(R6, 0x00000000)
T5868 000:570.872 - 0.010ms returns 0
T5868 000:570.880 JLINK_WriteReg(R7, 0x00000000)
T5868 000:570.887 - 0.010ms returns 0
T5868 000:570.895 JLINK_WriteReg(R8, 0x00000000)
T5868 000:570.902 - 0.010ms returns 0
T5868 000:570.910 JLINK_WriteReg(R9, 0x20000160)
T5868 000:570.917 - 0.010ms returns 0
T5868 000:570.925 JLINK_WriteReg(R10, 0x00000000)
T5868 000:570.936 - 0.017ms returns 0
T5868 000:570.947 JLINK_WriteReg(R11, 0x00000000)
T5868 000:570.954 - 0.010ms returns 0
T5868 000:570.963 JLINK_WriteReg(R12, 0x00000000)
T5868 000:570.969 - 0.010ms returns 0
T5868 000:570.978 JLINK_WriteReg(R13 (SP), 0x20001000)
T5868 000:570.985 - 0.011ms returns 0
T5868 000:570.994 JLINK_WriteReg(R14, 0x20000001)
T5868 000:571.000 - 0.010ms returns 0
T5868 000:571.009 JLINK_WriteReg(R15 (PC), 0x20000038)
T5868 000:571.016 - 0.010ms returns 0
T5868 000:571.024 JLINK_WriteReg(XPSR, 0x01000000)
T5868 000:571.031 - 0.010ms returns 0
T5868 000:571.039 JLINK_WriteReg(MSP, 0x20001000)
T5868 000:571.046 - 0.010ms returns 0
T5868 000:571.054 JLINK_WriteReg(PSP, 0x20001000)
T5868 000:571.061 - 0.010ms returns 0
T5868 000:571.069 JLINK_WriteReg(CFBP, 0x00000000)
T5868 000:571.099 - 0.033ms returns 0
T5868 000:571.107 JLINK_SetBPEx(Addr = 0x20000000, Type = 0xFFFFFFF2)
T5868 000:571.120   CPU_ReadMem(2 bytes @ 0x20000000)
T5868 000:571.683 - 0.582ms returns 0x00000004
T5868 000:571.697 JLINK_Go()
T5868 000:571.707   CPU_WriteMem(2 bytes @ 0x20000000)
T5868 000:572.228   CPU_ReadMem(4 bytes @ 0xE0001000)
T5868 000:576.142 - 4.453ms
T5868 000:576.159 JLINK_IsHalted()
T5868 000:579.677   CPU_ReadMem(2 bytes @ 0x20000000)
T5868 000:580.193 - 4.041ms returns TRUE
T5868 000:580.208 JLINK_ReadReg(R15 (PC))
T5868 000:580.217 - 0.012ms returns 0x20000000
T5868 000:580.226 JLINK_ClrBPEx(BPHandle = 0x00000004)
T5868 000:580.233 - 0.010ms returns 0x00
T5868 000:580.241 JLINK_ReadReg(R0)
T5868 000:580.248 - 0.010ms returns 0x00000000
T5868 000:580.582 JLINK_WriteMem(0x20000164, 0x29C Bytes, ...)
T5868 000:580.594   Data:  C8 0C 00 20 ED 01 00 08 6D 30 00 08 F7 2D 00 08 ...
T5868 000:580.612   CPU_WriteMem(668 bytes @ 0x20000164)
T5868 000:584.996 - 4.430ms returns 0x29C
T5868 000:585.022 JLINK_WriteMem(0x20000400, 0x164 Bytes, ...)
T5868 000:585.029   Data:  04 D5 11 A5 01 24 01 E0 AF F3 00 80 00 21 0A 22 ...
T5868 000:585.048   CPU_WriteMem(356 bytes @ 0x20000400)
T5868 000:587.781 - 2.777ms returns 0x164
T5868 000:587.809 JLINK_HasError()
T5868 000:587.820 JLINK_WriteReg(R0, 0x08000000)
T5868 000:587.831 - 0.014ms returns 0
T5868 000:587.839 JLINK_WriteReg(R1, 0x00000400)
T5868 000:587.847 - 0.010ms returns 0
T5868 000:587.855 JLINK_WriteReg(R2, 0x20000164)
T5868 000:587.862 - 0.010ms returns 0
T5868 000:587.870 JLINK_WriteReg(R3, 0x00000000)
T5868 000:587.877 - 0.010ms returns 0
T5868 000:587.885 JLINK_WriteReg(R4, 0x00000000)
T5868 000:587.892 - 0.010ms returns 0
T5868 000:587.900 JLINK_WriteReg(R5, 0x00000000)
T5868 000:587.907 - 0.010ms returns 0
T5868 000:587.915 JLINK_WriteReg(R6, 0x00000000)
T5868 000:587.923 - 0.010ms returns 0
T5868 000:587.931 JLINK_WriteReg(R7, 0x00000000)
T5868 000:587.938 - 0.010ms returns 0
T5868 000:587.946 JLINK_WriteReg(R8, 0x00000000)
T5868 000:587.953 - 0.010ms returns 0
T5868 000:587.961 JLINK_WriteReg(R9, 0x20000160)
T5868 000:587.968 - 0.010ms returns 0
T5868 000:587.976 JLINK_WriteReg(R10, 0x00000000)
T5868 000:587.983 - 0.010ms returns 0
T5868 000:587.991 JLINK_WriteReg(R11, 0x00000000)
T5868 000:587.998 - 0.010ms returns 0
T5868 000:588.006 JLINK_WriteReg(R12, 0x00000000)
T5868 000:588.013 - 0.010ms returns 0
T5868 000:588.021 JLINK_WriteReg(R13 (SP), 0x20001000)
T5868 000:588.029 - 0.010ms returns 0
T5868 000:588.037 JLINK_WriteReg(R14, 0x20000001)
T5868 000:588.043 - 0.010ms returns 0
T5868 000:588.052 JLINK_WriteReg(R15 (PC), 0x200000F4)
T5868 000:588.059 - 0.010ms returns 0
T5868 000:588.067 JLINK_WriteReg(XPSR, 0x01000000)
T5868 000:588.080 - 0.016ms returns 0
T5868 000:588.089 JLINK_WriteReg(MSP, 0x20001000)
T5868 000:588.096 - 0.010ms returns 0
T5868 000:588.104 JLINK_WriteReg(PSP, 0x20001000)
T5868 000:588.111 - 0.010ms returns 0
T5868 000:588.119 JLINK_WriteReg(CFBP, 0x00000000)
T5868 000:588.125 - 0.010ms returns 0
T5868 000:588.134 JLINK_SetBPEx(Addr = 0x20000000, Type = 0xFFFFFFF2)
T5868 000:588.142 - 0.011ms returns 0x00000005
T5868 000:588.151 JLINK_Go()
T5868 000:588.165   CPU_ReadMem(4 bytes @ 0xE0001000)
T5868 000:592.086 - 3.945ms
T5868 000:592.105 JLINK_IsHalted()
T5868 000:592.645 - 0.547ms returns FALSE
T5868 000:592.659 JLINK_HasError()
T5868 000:596.194 JLINK_IsHalted()
T5868 000:596.762 - 0.575ms returns FALSE
T5868 000:596.777 JLINK_HasError()
T5868 000:598.205 JLINK_IsHalted()
T5868 000:598.731 - 0.534ms returns FALSE
T5868 000:598.746 JLINK_HasError()
T5868 000:600.095 JLINK_IsHalted()
T5868 000:600.637 - 0.549ms returns FALSE
T5868 000:600.652 JLINK_HasError()
T5868 000:602.203 JLINK_IsHalted()
T5868 000:602.631 - 0.439ms returns FALSE
T5868 000:602.651 JLINK_HasError()
T5868 000:604.212 JLINK_IsHalted()
T5868 000:604.768 - 0.563ms returns FALSE
T5868 000:604.783 JLINK_HasError()
T5868 000:606.208 JLINK_IsHalted()
T5868 000:606.714 - 0.513ms returns FALSE
T5868 000:606.728 JLINK_HasError()
T5868 000:608.206 JLINK_IsHalted()
T5868 000:608.731 - 0.531ms returns FALSE
T5868 000:608.745 JLINK_HasError()
T5868 000:610.240 JLINK_IsHalted()
T5868 000:610.781 - 0.549ms returns FALSE
T5868 000:610.796 JLINK_HasError()
T5868 000:612.231 JLINK_IsHalted()
T5868 000:612.734 - 0.510ms returns FALSE
T5868 000:612.748 JLINK_HasError()
T5868 000:614.237 JLINK_IsHalted()
T5868 000:614.773 - 0.543ms returns FALSE
T5868 000:614.787 JLINK_HasError()
T5868 000:616.244 JLINK_IsHalted()
T5868 000:616.790 - 0.553ms returns FALSE
T5868 000:616.805 JLINK_HasError()
T5868 000:619.112 JLINK_IsHalted()
T5868 000:619.693 - 0.590ms returns FALSE
T5868 000:619.710 JLINK_HasError()
T5868 000:621.203 JLINK_IsHalted()
T5868 000:621.752 - 0.556ms returns FALSE
T5868 000:621.766 JLINK_HasError()
T5868 000:623.206 JLINK_IsHalted()
T5868 000:626.810   CPU_ReadMem(2 bytes @ 0x20000000)
T5868 000:627.371 - 4.171ms returns TRUE
T5868 000:627.386 JLINK_ReadReg(R15 (PC))
T5868 000:627.395 - 0.012ms returns 0x20000000
T5868 000:627.403 JLINK_ClrBPEx(BPHandle = 0x00000005)
T5868 000:627.411 - 0.010ms returns 0x00
T5868 000:627.419 JLINK_ReadReg(R0)
T5868 000:627.426 - 0.010ms returns 0x00000000
T5868 000:627.954 JLINK_WriteMem(0x20000164, 0x29C Bytes, ...)
T5868 000:627.967   Data:  07 00 00 E0 07 E0 00 F1 08 09 78 E7 05 F1 04 09 ...
T5868 000:627.984   CPU_WriteMem(668 bytes @ 0x20000164)
T5868 000:632.288 - 4.350ms returns 0x29C
T5868 000:632.315 JLINK_WriteMem(0x20000400, 0x164 Bytes, ...)
T5868 000:632.322   Data:  C8 B1 0E E0 00 21 68 1E 05 E0 23 5C 62 5C 63 54 ...
T5868 000:632.341   CPU_WriteMem(356 bytes @ 0x20000400)
T5868 000:634.990 - 2.683ms returns 0x164
T5868 000:635.007 JLINK_HasError()
T5868 000:635.017 JLINK_WriteReg(R0, 0x08000400)
T5868 000:635.026 - 0.013ms returns 0
T5868 000:635.035 JLINK_WriteReg(R1, 0x00000400)
T5868 000:635.042 - 0.010ms returns 0
T5868 000:635.050 JLINK_WriteReg(R2, 0x20000164)
T5868 000:635.057 - 0.010ms returns 0
T5868 000:635.066 JLINK_WriteReg(R3, 0x00000000)
T5868 000:635.073 - 0.010ms returns 0
T5868 000:635.081 JLINK_WriteReg(R4, 0x00000000)
T5868 000:635.088 - 0.010ms returns 0
T5868 000:635.096 JLINK_WriteReg(R5, 0x00000000)
T5868 000:635.103 - 0.010ms returns 0
T5868 000:635.111 JLINK_WriteReg(R6, 0x00000000)
T5868 000:635.118 - 0.010ms returns 0
T5868 000:635.126 JLINK_WriteReg(R7, 0x00000000)
T5868 000:635.133 - 0.010ms returns 0
T5868 000:635.141 JLINK_WriteReg(R8, 0x00000000)
T5868 000:635.148 - 0.010ms returns 0
T5868 000:635.156 JLINK_WriteReg(R9, 0x20000160)
T5868 000:635.163 - 0.010ms returns 0
T5868 000:635.171 JLINK_WriteReg(R10, 0x00000000)
T5868 000:635.178 - 0.010ms returns 0
T5868 000:635.186 JLINK_WriteReg(R11, 0x00000000)
T5868 000:635.193 - 0.010ms returns 0
T5868 000:635.201 JLINK_WriteReg(R12, 0x00000000)
T5868 000:635.208 - 0.010ms returns 0
T5868 000:635.221 JLINK_WriteReg(R13 (SP), 0x20001000)
T5868 000:635.233 - 0.016ms returns 0
T5868 000:635.242 JLINK_WriteReg(R14, 0x20000001)
T5868 000:635.249 - 0.010ms returns 0
T5868 000:635.257 JLINK_WriteReg(R15 (PC), 0x200000F4)
T5868 000:635.264 - 0.010ms returns 0
T5868 000:635.272 JLINK_WriteReg(XPSR, 0x01000000)
T5868 000:635.283 - 0.016ms returns 0
T5868 000:635.293 JLINK_WriteReg(MSP, 0x20001000)
T5868 000:635.300 - 0.010ms returns 0
T5868 000:635.308 JLINK_WriteReg(PSP, 0x20001000)
T5868 000:635.315 - 0.009ms returns 0
T5868 000:635.323 JLINK_WriteReg(CFBP, 0x00000000)
T5868 000:635.329 - 0.009ms returns 0
T5868 000:635.338 JLINK_SetBPEx(Addr = 0x20000000, Type = 0xFFFFFFF2)
T5868 000:635.346 - 0.011ms returns 0x00000006
T5868 000:635.354 JLINK_Go()
T5868 000:635.367   CPU_ReadMem(4 bytes @ 0xE0001000)
T5868 000:639.192 - 3.849ms
T5868 000:639.211 JLINK_IsHalted()
T5868 000:639.624 - 0.428ms returns FALSE
T5868 000:639.649 JLINK_HasError()
T5868 000:641.346 JLINK_IsHalted()
T5868 000:641.924 - 0.585ms returns FALSE
T5868 000:641.939 JLINK_HasError()
T5868 000:643.344 JLINK_IsHalted()
T5868 000:643.906 - 0.569ms returns FALSE
T5868 000:643.920 JLINK_HasError()
T5868 000:645.351 JLINK_IsHalted()
T5868 000:645.871 - 0.527ms returns FALSE
T5868 000:645.890 JLINK_HasError()
T5868 000:647.230 JLINK_IsHalted()
T5868 000:647.729 - 0.507ms returns FALSE
T5868 000:647.746 JLINK_HasError()
T5868 000:649.226 JLINK_IsHalted()
T5868 000:649.659 - 0.440ms returns FALSE
T5868 000:649.674 JLINK_HasError()
T5868 000:651.226 JLINK_IsHalted()
T5868 000:651.639 - 0.421ms returns FALSE
T5868 000:651.655 JLINK_HasError()
T5868 000:653.241 JLINK_IsHalted()
T5868 000:653.718 - 0.486ms returns FALSE
T5868 000:653.735 JLINK_HasError()
T5868 000:655.279 JLINK_IsHalted()
T5868 000:655.718 - 0.446ms returns FALSE
T5868 000:655.733 JLINK_HasError()
T5868 000:657.296 JLINK_IsHalted()
T5868 000:657.773 - 0.485ms returns FALSE
T5868 000:657.789 JLINK_HasError()
T5868 000:659.278 JLINK_IsHalted()
T5868 000:660.013 - 0.757ms returns FALSE
T5868 000:660.046 JLINK_HasError()
T5868 000:661.553 JLINK_IsHalted()
T5868 000:662.046 - 0.521ms returns FALSE
T5868 000:662.094 JLINK_HasError()
T5868 000:665.509 JLINK_IsHalted()
T5868 000:666.279 - 0.793ms returns FALSE
T5868 000:666.317 JLINK_HasError()
T5868 000:667.549 JLINK_IsHalted()
T5868 000:668.290 - 0.764ms returns FALSE
T5868 000:668.324 JLINK_HasError()
T5868 000:670.520 JLINK_IsHalted()
T5868 000:674.562   CPU_ReadMem(2 bytes @ 0x20000000)
T5868 000:675.345 - 4.847ms returns TRUE
T5868 000:675.385 JLINK_ReadReg(R15 (PC))
T5868 000:675.398 - 0.018ms returns 0x20000000
T5868 000:675.409 JLINK_ClrBPEx(BPHandle = 0x00000006)
T5868 000:675.425 - 0.024ms returns 0x00
T5868 000:675.523 JLINK_ReadReg(R0)
T5868 000:675.549 - 0.031ms returns 0x00000000
T5868 000:676.192 JLINK_WriteMem(0x20000164, 0x29C Bytes, ...)
T5868 000:676.219   Data:  04 0F 04 DA 01 20 82 46 0F E0 6D 1E EE E7 00 2F ...
T5868 000:676.294   CPU_WriteMem(668 bytes @ 0x20000164)
T5868 000:680.860 - 4.689ms returns 0x29C
T5868 000:680.893 JLINK_WriteMem(0x20000400, 0x164 Bytes, ...)
T5868 000:680.902   Data:  90 47 76 1E F8 D2 20 46 AF F3 00 80 BD E8 F0 81 ...
T5868 000:680.923   CPU_WriteMem(356 bytes @ 0x20000400)
T5868 000:683.584 - 2.712ms returns 0x164
T5868 000:683.618 JLINK_HasError()
T5868 000:683.630 JLINK_WriteReg(R0, 0x08000800)
T5868 000:683.643 - 0.017ms returns 0
T5868 000:683.653 JLINK_WriteReg(R1, 0x00000400)
T5868 000:683.661 - 0.011ms returns 0
T5868 000:683.669 JLINK_WriteReg(R2, 0x20000164)
T5868 000:683.676 - 0.010ms returns 0
T5868 000:683.685 JLINK_WriteReg(R3, 0x00000000)
T5868 000:683.692 - 0.010ms returns 0
T5868 000:683.700 JLINK_WriteReg(R4, 0x00000000)
T5868 000:683.707 - 0.010ms returns 0
T5868 000:683.716 JLINK_WriteReg(R5, 0x00000000)
T5868 000:683.725 - 0.012ms returns 0
T5868 000:683.733 JLINK_WriteReg(R6, 0x00000000)
T5868 000:683.740 - 0.010ms returns 0
T5868 000:683.748 JLINK_WriteReg(R7, 0x00000000)
T5868 000:683.754 - 0.009ms returns 0
T5868 000:683.762 JLINK_WriteReg(R8, 0x00000000)
T5868 000:683.769 - 0.010ms returns 0
T5868 000:683.778 JLINK_WriteReg(R9, 0x20000160)
T5868 000:683.784 - 0.009ms returns 0
T5868 000:683.792 JLINK_WriteReg(R10, 0x00000000)
T5868 000:683.799 - 0.010ms returns 0
T5868 000:683.807 JLINK_WriteReg(R11, 0x00000000)
T5868 000:683.862 - 0.058ms returns 0
T5868 000:683.872 JLINK_WriteReg(R12, 0x00000000)
T5868 000:683.879 - 0.010ms returns 0
T5868 000:683.887 JLINK_WriteReg(R13 (SP), 0x20001000)
T5868 000:683.895 - 0.011ms returns 0
T5868 000:683.903 JLINK_WriteReg(R14, 0x20000001)
T5868 000:683.911 - 0.011ms returns 0
T5868 000:683.919 JLINK_WriteReg(R15 (PC), 0x200000F4)
T5868 000:683.926 - 0.010ms returns 0
T5868 000:683.934 JLINK_WriteReg(XPSR, 0x01000000)
T5868 000:683.941 - 0.010ms returns 0
T5868 000:683.949 JLINK_WriteReg(MSP, 0x20001000)
T5868 000:683.956 - 0.010ms returns 0
T5868 000:683.964 JLINK_WriteReg(PSP, 0x20001000)
T5868 000:683.971 - 0.009ms returns 0
T5868 000:683.979 JLINK_WriteReg(CFBP, 0x00000000)
T5868 000:683.986 - 0.010ms returns 0
T5868 000:683.994 JLINK_SetBPEx(Addr = 0x20000000, Type = 0xFFFFFFF2)
T5868 000:684.004 - 0.013ms returns 0x00000007
T5868 000:684.012 JLINK_Go()
T5868 000:684.028   CPU_ReadMem(4 bytes @ 0xE0001000)
T5868 000:688.428 - 4.441ms
T5868 000:688.466 JLINK_IsHalted()
T5868 000:689.189 - 0.744ms returns FALSE
T5868 000:689.223 JLINK_HasError()
T5868 000:690.558 JLINK_IsHalted()
T5868 000:691.325 - 0.790ms returns FALSE
T5868 000:691.359 JLINK_HasError()
T5868 000:692.553 JLINK_IsHalted()
T5868 000:693.360 - 0.840ms returns FALSE
T5868 000:693.416 JLINK_HasError()
T5868 000:695.556 JLINK_IsHalted()
T5868 000:696.319 - 0.786ms returns FALSE
T5868 000:696.356 JLINK_HasError()
T5868 000:697.569 JLINK_IsHalted()
T5868 000:698.394 - 0.847ms returns FALSE
T5868 000:698.428 JLINK_HasError()
T5868 000:699.572 JLINK_IsHalted()
T5868 000:700.355 - 0.805ms returns FALSE
T5868 000:700.394 JLINK_HasError()
T5868 000:701.553 JLINK_IsHalted()
T5868 000:702.397 - 0.878ms returns FALSE
T5868 000:702.448 JLINK_HasError()
T5868 000:704.558 JLINK_IsHalted()
T5868 000:705.314 - 0.777ms returns FALSE
T5868 000:705.347 JLINK_HasError()
T5868 000:706.565 JLINK_IsHalted()
T5868 000:707.314 - 0.771ms returns FALSE
T5868 000:707.348 JLINK_HasError()
T5868 000:708.600 JLINK_IsHalted()
T5868 000:709.073 - 0.497ms returns FALSE
T5868 000:709.111 JLINK_HasError()
T5868 000:710.562 JLINK_IsHalted()
T5868 000:711.370 - 0.830ms returns FALSE
T5868 000:711.403 JLINK_HasError()
T5868 000:712.553 JLINK_IsHalted()
T5868 000:713.330 - 0.798ms returns FALSE
T5868 000:713.363 JLINK_HasError()
T5868 000:714.559 JLINK_IsHalted()
T5868 000:715.330 - 0.793ms returns FALSE
T5868 000:715.364 JLINK_HasError()
T5868 000:716.555 JLINK_IsHalted()
T5868 000:717.370 - 0.837ms returns FALSE
T5868 000:717.404 JLINK_HasError()
T5868 000:718.568 JLINK_IsHalted()
T5868 000:722.495   CPU_ReadMem(2 bytes @ 0x20000000)
T5868 000:723.284 - 4.740ms returns TRUE
T5868 000:723.321 JLINK_ReadReg(R15 (PC))
T5868 000:723.336 - 0.019ms returns 0x20000000
T5868 000:723.346 JLINK_ClrBPEx(BPHandle = 0x00000007)
T5868 000:723.354 - 0.011ms returns 0x00
T5868 000:723.363 JLINK_ReadReg(R0)
T5868 000:723.371 - 0.010ms returns 0x00000000
T5868 000:724.015 JLINK_WriteMem(0x20000164, 0x29C Bytes, ...)
T5868 000:724.037   Data:  00 80 20 46 BD E8 10 40 FF F7 E9 BA 4F F0 01 3C ...
T5868 000:724.061   CPU_WriteMem(668 bytes @ 0x20000164)
T5868 000:728.387 - 4.394ms returns 0x29C
T5868 000:728.425 JLINK_WriteMem(0x20000400, 0x164 Bytes, ...)
T5868 000:728.443   Data:  0C FB 0B F7 D2 1B 03 FB 0C F7 61 EB 07 01 0C FB ...
T5868 000:728.468   CPU_WriteMem(356 bytes @ 0x20000400)
T5868 000:731.051 - 2.644ms returns 0x164
T5868 000:731.085 JLINK_HasError()
T5868 000:731.172 JLINK_WriteReg(R0, 0x08000C00)
T5868 000:731.191 - 0.022ms returns 0
T5868 000:731.201 JLINK_WriteReg(R1, 0x00000400)
T5868 000:731.208 - 0.010ms returns 0
T5868 000:731.217 JLINK_WriteReg(R2, 0x20000164)
T5868 000:731.223 - 0.010ms returns 0
T5868 000:731.231 JLINK_WriteReg(R3, 0x00000000)
T5868 000:731.238 - 0.010ms returns 0
T5868 000:731.247 JLINK_WriteReg(R4, 0x00000000)
T5868 000:731.257 - 0.014ms returns 0
T5868 000:731.272 JLINK_WriteReg(R5, 0x00000000)
T5868 000:731.287 - 0.023ms returns 0
T5868 000:731.306 JLINK_WriteReg(R6, 0x00000000)
T5868 000:731.317 - 0.015ms returns 0
T5868 000:731.328 JLINK_WriteReg(R7, 0x00000000)
T5868 000:731.339 - 0.015ms returns 0
T5868 000:731.350 JLINK_WriteReg(R8, 0x00000000)
T5868 000:731.360 - 0.014ms returns 0
T5868 000:731.371 JLINK_WriteReg(R9, 0x20000160)
T5868 000:731.381 - 0.014ms returns 0
T5868 000:731.392 JLINK_WriteReg(R10, 0x00000000)
T5868 000:731.402 - 0.014ms returns 0
T5868 000:731.414 JLINK_WriteReg(R11, 0x00000000)
T5868 000:731.424 - 0.015ms returns 0
T5868 000:731.436 JLINK_WriteReg(R12, 0x00000000)
T5868 000:731.446 - 0.014ms returns 0
T5868 000:731.457 JLINK_WriteReg(R13 (SP), 0x20001000)
T5868 000:731.468 - 0.015ms returns 0
T5868 000:731.480 JLINK_WriteReg(R14, 0x20000001)
T5868 000:731.490 - 0.015ms returns 0
T5868 000:731.502 JLINK_WriteReg(R15 (PC), 0x200000F4)
T5868 000:731.513 - 0.015ms returns 0
T5868 000:731.525 JLINK_WriteReg(XPSR, 0x01000000)
T5868 000:731.536 - 0.015ms returns 0
T5868 000:731.547 JLINK_WriteReg(MSP, 0x20001000)
T5868 000:731.558 - 0.015ms returns 0
T5868 000:731.569 JLINK_WriteReg(PSP, 0x20001000)
T5868 000:731.580 - 0.015ms returns 0
T5868 000:731.592 JLINK_WriteReg(CFBP, 0x00000000)
T5868 000:731.602 - 0.014ms returns 0
T5868 000:731.614 JLINK_SetBPEx(Addr = 0x20000000, Type = 0xFFFFFFF2)
T5868 000:731.627 - 0.018ms returns 0x00000008
T5868 000:731.639 JLINK_Go()
T5868 000:731.662   CPU_ReadMem(4 bytes @ 0xE0001000)
T5868 000:735.407 - 3.787ms
T5868 000:735.437 JLINK_IsHalted()
T5868 000:735.862 - 0.436ms returns FALSE
T5868 000:735.882 JLINK_HasError()
T5868 000:737.318 JLINK_IsHalted()
T5868 000:737.779 - 0.472ms returns FALSE
T5868 000:737.800 JLINK_HasError()
T5868 000:739.570 JLINK_IsHalted()
T5868 000:740.116 - 0.566ms returns FALSE
T5868 000:740.148 JLINK_HasError()
T5868 000:741.559 JLINK_IsHalted()
T5868 000:742.357 - 0.819ms returns FALSE
T5868 000:742.390 JLINK_HasError()
T5868 000:743.546 JLINK_IsHalted()
T5868 000:744.268 - 0.744ms returns FALSE
T5868 000:744.301 JLINK_HasError()
T5868 000:745.558 JLINK_IsHalted()
T5868 000:746.324 - 0.788ms returns FALSE
T5868 000:746.358 JLINK_HasError()
T5868 000:748.286 JLINK_IsHalted()
T5868 000:748.722 - 0.447ms returns FALSE
T5868 000:748.745 JLINK_HasError()
T5868 000:750.419 JLINK_IsHalted()
T5868 000:751.095 - 0.690ms returns FALSE
T5868 000:751.118 JLINK_HasError()
T5868 000:752.449 JLINK_IsHalted()
T5868 000:752.971 - 0.550ms returns FALSE
T5868 000:753.015 JLINK_HasError()
T5868 000:754.560 JLINK_IsHalted()
T5868 000:755.363 - 0.832ms returns FALSE
T5868 000:755.424 JLINK_HasError()
T5868 000:757.547 JLINK_IsHalted()
T5868 000:758.329 - 0.811ms returns FALSE
T5868 000:758.372 JLINK_HasError()
T5868 000:759.553 JLINK_IsHalted()
T5868 000:760.323 - 0.793ms returns FALSE
T5868 000:760.357 JLINK_HasError()
T5868 000:761.587 JLINK_IsHalted()
T5868 000:762.256 - 0.691ms returns FALSE
T5868 000:762.290 JLINK_HasError()
T5868 000:763.566 JLINK_IsHalted()
T5868 000:764.398 - 0.853ms returns FALSE
T5868 000:764.432 JLINK_HasError()
T5868 000:765.555 JLINK_IsHalted()
T5868 000:766.328 - 0.796ms returns FALSE
T5868 000:766.362 JLINK_HasError()
T5868 000:767.557 JLINK_IsHalted()
T5868 000:771.546   CPU_ReadMem(2 bytes @ 0x20000000)
T5868 000:772.340 - 4.815ms returns TRUE
T5868 000:772.386 JLINK_ReadReg(R15 (PC))
T5868 000:772.400 - 0.018ms returns 0x20000000
T5868 000:772.410 JLINK_ClrBPEx(BPHandle = 0x00000008)
T5868 000:772.418 - 0.011ms returns 0x00
T5868 000:772.428 JLINK_ReadReg(R0)
T5868 000:772.436 - 0.011ms returns 0x00000000
T5868 000:773.087 JLINK_WriteMem(0x20000164, 0x29C Bytes, ...)
T5868 000:773.109   Data:  55 F1 00 02 54 F1 00 01 03 D5 BD E8 89 01 BD E8 ...
T5868 000:773.133   CPU_WriteMem(668 bytes @ 0x20000164)
T5868 000:777.582 - 4.527ms returns 0x29C
T5868 000:777.640 JLINK_WriteMem(0x20000400, 0x164 Bytes, ...)
T5868 000:777.663   Data:  17 44 4E EA 8E 0E 27 EA 04 45 4F EA 1C 47 04 FB ...
T5868 000:777.704   CPU_WriteMem(356 bytes @ 0x20000400)
T5868 000:780.571 - 2.954ms returns 0x164
T5868 000:780.611 JLINK_HasError()
T5868 000:780.624 JLINK_WriteReg(R0, 0x08001000)
T5868 000:780.637 - 0.018ms returns 0
T5868 000:780.734 JLINK_WriteReg(R1, 0x00000400)
T5868 000:780.761 - 0.032ms returns 0
T5868 000:780.774 JLINK_WriteReg(R2, 0x20000164)
T5868 000:780.781 - 0.011ms returns 0
T5868 000:780.790 JLINK_WriteReg(R3, 0x00000000)
T5868 000:780.797 - 0.010ms returns 0
T5868 000:780.805 JLINK_WriteReg(R4, 0x00000000)
T5868 000:780.813 - 0.011ms returns 0
T5868 000:780.822 JLINK_WriteReg(R5, 0x00000000)
T5868 000:780.829 - 0.010ms returns 0
T5868 000:780.837 JLINK_WriteReg(R6, 0x00000000)
T5868 000:780.843 - 0.010ms returns 0
T5868 000:780.852 JLINK_WriteReg(R7, 0x00000000)
T5868 000:780.859 - 0.010ms returns 0
T5868 000:780.867 JLINK_WriteReg(R8, 0x00000000)
T5868 000:780.874 - 0.010ms returns 0
T5868 000:780.882 JLINK_WriteReg(R9, 0x20000160)
T5868 000:780.889 - 0.010ms returns 0
T5868 000:780.897 JLINK_WriteReg(R10, 0x00000000)
T5868 000:780.904 - 0.010ms returns 0
T5868 000:780.912 JLINK_WriteReg(R11, 0x00000000)
T5868 000:780.919 - 0.010ms returns 0
T5868 000:780.928 JLINK_WriteReg(R12, 0x00000000)
T5868 000:780.935 - 0.010ms returns 0
T5868 000:780.943 JLINK_WriteReg(R13 (SP), 0x20001000)
T5868 000:780.951 - 0.011ms returns 0
T5868 000:780.959 JLINK_WriteReg(R14, 0x20000001)
T5868 000:780.966 - 0.010ms returns 0
T5868 000:780.974 JLINK_WriteReg(R15 (PC), 0x200000F4)
T5868 000:780.981 - 0.010ms returns 0
T5868 000:780.989 JLINK_WriteReg(XPSR, 0x01000000)
T5868 000:780.996 - 0.010ms returns 0
T5868 000:781.004 JLINK_WriteReg(MSP, 0x20001000)
T5868 000:781.011 - 0.009ms returns 0
T5868 000:781.019 JLINK_WriteReg(PSP, 0x20001000)
T5868 000:781.026 - 0.010ms returns 0
T5868 000:781.034 JLINK_WriteReg(CFBP, 0x00000000)
T5868 000:781.041 - 0.010ms returns 0
T5868 000:781.050 JLINK_SetBPEx(Addr = 0x20000000, Type = 0xFFFFFFF2)
T5868 000:781.059 - 0.013ms returns 0x00000009
T5868 000:781.068 JLINK_Go()
T5868 000:781.084   CPU_ReadMem(4 bytes @ 0xE0001000)
T5868 000:785.485 - 4.440ms
T5868 000:785.521 JLINK_IsHalted()
T5868 000:786.134 - 0.633ms returns FALSE
T5868 000:786.164 JLINK_HasError()
T5868 000:789.552 JLINK_IsHalted()
T5868 000:790.319 - 0.791ms returns FALSE
T5868 000:790.356 JLINK_HasError()
T5868 000:791.553 JLINK_IsHalted()
T5868 000:792.326 - 0.795ms returns FALSE
T5868 000:792.361 JLINK_HasError()
T5868 000:793.572 JLINK_IsHalted()
T5868 000:794.398 - 0.848ms returns FALSE
T5868 000:794.432 JLINK_HasError()
T5868 000:795.568 JLINK_IsHalted()
T5868 000:796.352 - 0.806ms returns FALSE
T5868 000:796.387 JLINK_HasError()
T5868 000:797.554 JLINK_IsHalted()
T5868 000:798.333 - 0.801ms returns FALSE
T5868 000:798.367 JLINK_HasError()
T5868 000:799.559 JLINK_IsHalted()
T5868 000:800.370 - 0.834ms returns FALSE
T5868 000:800.404 JLINK_HasError()
T5868 000:801.574 JLINK_IsHalted()
T5868 000:802.206 - 0.653ms returns FALSE
T5868 000:802.239 JLINK_HasError()
T5868 000:803.384 JLINK_IsHalted()
T5868 000:804.105 - 0.743ms returns FALSE
T5868 000:804.138 JLINK_HasError()
T5868 000:805.557 JLINK_IsHalted()
T5868 000:806.325 - 0.796ms returns FALSE
T5868 000:806.372 JLINK_HasError()
T5868 000:807.560 JLINK_IsHalted()
T5868 000:808.329 - 0.791ms returns FALSE
T5868 000:808.363 JLINK_HasError()
T5868 000:810.563 JLINK_IsHalted()
T5868 000:811.333 - 0.795ms returns FALSE
T5868 000:811.375 JLINK_HasError()
T5868 000:812.558 JLINK_IsHalted()
T5868 000:813.369 - 0.833ms returns FALSE
T5868 000:813.403 JLINK_HasError()
T5868 000:814.589 JLINK_IsHalted()
T5868 000:815.417 - 0.850ms returns FALSE
T5868 000:815.450 JLINK_HasError()
T5868 000:816.560 JLINK_IsHalted()
T5868 000:820.237   CPU_ReadMem(2 bytes @ 0x20000000)
T5868 000:820.802 - 4.250ms returns TRUE
T5868 000:820.819 JLINK_ReadReg(R15 (PC))
T5868 000:820.829 - 0.013ms returns 0x20000000
T5868 000:820.838 JLINK_ClrBPEx(BPHandle = 0x00000009)
T5868 000:820.846 - 0.010ms returns 0x00
T5868 000:820.854 JLINK_ReadReg(R0)
T5868 000:820.861 - 0.013ms returns 0x00000000
T5868 000:821.422 JLINK_WriteMem(0x20000164, 0x29C Bytes, ...)
T5868 000:821.436   Data:  41 EB 17 41 12 EB 0C 42 51 EB 1C 41 48 BF 70 47 ...
T5868 000:821.453   CPU_WriteMem(668 bytes @ 0x20000164)
T5868 000:825.823 - 4.423ms returns 0x29C
T5868 000:825.857 JLINK_WriteMem(0x20000400, 0x164 Bytes, ...)
T5868 000:825.865   Data:  41 61 80 21 81 61 01 20 0F 49 08 60 00 20 48 60 ...
T5868 000:825.887   CPU_WriteMem(356 bytes @ 0x20000400)
T5868 000:828.581 - 2.747ms returns 0x164
T5868 000:828.616 JLINK_HasError()
T5868 000:828.629 JLINK_WriteReg(R0, 0x08001400)
T5868 000:828.641 - 0.017ms returns 0
T5868 000:828.652 JLINK_WriteReg(R1, 0x00000400)
T5868 000:828.659 - 0.010ms returns 0
T5868 000:828.667 JLINK_WriteReg(R2, 0x20000164)
T5868 000:828.674 - 0.010ms returns 0
T5868 000:828.683 JLINK_WriteReg(R3, 0x00000000)
T5868 000:828.689 - 0.010ms returns 0
T5868 000:828.698 JLINK_WriteReg(R4, 0x00000000)
T5868 000:828.704 - 0.010ms returns 0
T5868 000:828.712 JLINK_WriteReg(R5, 0x00000000)
T5868 000:828.720 - 0.010ms returns 0
T5868 000:828.728 JLINK_WriteReg(R6, 0x00000000)
T5868 000:828.734 - 0.009ms returns 0
T5868 000:828.742 JLINK_WriteReg(R7, 0x00000000)
T5868 000:828.749 - 0.010ms returns 0
T5868 000:828.757 JLINK_WriteReg(R8, 0x00000000)
T5868 000:828.764 - 0.010ms returns 0
T5868 000:828.772 JLINK_WriteReg(R9, 0x20000160)
T5868 000:828.779 - 0.010ms returns 0
T5868 000:828.787 JLINK_WriteReg(R10, 0x00000000)
T5868 000:828.793 - 0.009ms returns 0
T5868 000:828.801 JLINK_WriteReg(R11, 0x00000000)
T5868 000:828.808 - 0.010ms returns 0
T5868 000:828.816 JLINK_WriteReg(R12, 0x00000000)
T5868 000:828.823 - 0.009ms returns 0
T5868 000:828.831 JLINK_WriteReg(R13 (SP), 0x20001000)
T5868 000:828.839 - 0.011ms returns 0
T5868 000:828.847 JLINK_WriteReg(R14, 0x20000001)
T5868 000:828.854 - 0.010ms returns 0
T5868 000:828.862 JLINK_WriteReg(R15 (PC), 0x200000F4)
T5868 000:828.869 - 0.010ms returns 0
T5868 000:828.877 JLINK_WriteReg(XPSR, 0x01000000)
T5868 000:828.884 - 0.010ms returns 0
T5868 000:828.892 JLINK_WriteReg(MSP, 0x20001000)
T5868 000:828.898 - 0.010ms returns 0
T5868 000:828.906 JLINK_WriteReg(PSP, 0x20001000)
T5868 000:828.913 - 0.010ms returns 0
T5868 000:828.921 JLINK_WriteReg(CFBP, 0x00000000)
T5868 000:828.928 - 0.010ms returns 0
T5868 000:828.936 JLINK_SetBPEx(Addr = 0x20000000, Type = 0xFFFFFFF2)
T5868 000:828.945 - 0.011ms returns 0x0000000A
T5868 000:828.953 JLINK_Go()
T5868 000:828.968   CPU_ReadMem(4 bytes @ 0xE0001000)
T5868 000:833.327 - 4.397ms
T5868 000:833.368 JLINK_IsHalted()
T5868 000:834.121 - 0.774ms returns FALSE
T5868 000:834.159 JLINK_HasError()
T5868 000:835.565 JLINK_IsHalted()
T5868 000:836.108 - 0.568ms returns FALSE
T5868 000:836.148 JLINK_HasError()
T5868 000:838.543 JLINK_IsHalted()
T5868 000:839.368 - 0.847ms returns FALSE
T5868 000:839.402 JLINK_HasError()
T5868 000:840.560 JLINK_IsHalted()
T5868 000:841.331 - 0.793ms returns FALSE
T5868 000:841.366 JLINK_HasError()
T5868 000:842.554 JLINK_IsHalted()
T5868 000:843.373 - 0.841ms returns FALSE
T5868 000:843.407 JLINK_HasError()
T5868 000:844.562 JLINK_IsHalted()
T5868 000:845.331 - 0.790ms returns FALSE
T5868 000:845.366 JLINK_HasError()
T5868 000:846.562 JLINK_IsHalted()
T5868 000:847.353 - 0.814ms returns FALSE
T5868 000:847.389 JLINK_HasError()
T5868 000:848.636 JLINK_IsHalted()
T5868 000:849.166 - 0.575ms returns FALSE
T5868 000:849.239 JLINK_HasError()
T5868 000:851.545 JLINK_IsHalted()
T5868 000:852.275 - 0.752ms returns FALSE
T5868 000:852.318 JLINK_HasError()
T5868 000:854.557 JLINK_IsHalted()
T5868 000:855.314 - 0.778ms returns FALSE
T5868 000:855.347 JLINK_HasError()
T5868 000:856.574 JLINK_IsHalted()
T5868 000:857.361 - 0.810ms returns FALSE
T5868 000:857.396 JLINK_HasError()
T5868 000:858.573 JLINK_IsHalted()
T5868 000:859.391 - 0.839ms returns FALSE
T5868 000:859.430 JLINK_HasError()
T5868 000:860.562 JLINK_IsHalted()
T5868 000:861.385 - 0.845ms returns FALSE
T5868 000:861.418 JLINK_HasError()
T5868 000:862.554 JLINK_IsHalted()
T5868 000:863.330 - 0.797ms returns FALSE
T5868 000:863.364 JLINK_HasError()
T5868 000:864.594 JLINK_IsHalted()
T5868 000:868.362   CPU_ReadMem(2 bytes @ 0x20000000)
T5868 000:869.148 - 4.582ms returns TRUE
T5868 000:869.195 JLINK_ReadReg(R15 (PC))
T5868 000:869.215 - 0.028ms returns 0x20000000
T5868 000:869.233 JLINK_ClrBPEx(BPHandle = 0x0000000A)
T5868 000:869.246 - 0.037ms returns 0x00
T5868 000:869.280 JLINK_ReadReg(R0)
T5868 000:869.294 - 0.020ms returns 0x00000000
T5868 000:869.966 JLINK_WriteMem(0x20000164, 0x29C Bytes, ...)
T5868 000:869.990   Data:  20 68 88 42 02 D1 4F F4 80 30 2A E0 1E 49 14 39 ...
T5868 000:870.014   CPU_WriteMem(668 bytes @ 0x20000164)
T5868 000:874.576 - 4.647ms returns 0x29C
T5868 000:874.626 JLINK_WriteMem(0x20000400, 0x164 Bytes, ...)
T5868 000:874.634   Data:  DF F8 50 81 4F EA 93 09 48 F8 29 50 D1 F8 04 80 ...
T5868 000:874.656   CPU_WriteMem(356 bytes @ 0x20000400)
T5868 000:877.586 - 2.992ms returns 0x164
T5868 000:877.643 JLINK_HasError()
T5868 000:877.690 JLINK_WriteReg(R0, 0x08001800)
T5868 000:877.726 - 0.042ms returns 0
T5868 000:877.742 JLINK_WriteReg(R1, 0x00000400)
T5868 000:877.754 - 0.017ms returns 0
T5868 000:877.765 JLINK_WriteReg(R2, 0x20000164)
T5868 000:877.773 - 0.010ms returns 0
T5868 000:877.781 JLINK_WriteReg(R3, 0x00000000)
T5868 000:877.788 - 0.010ms returns 0
T5868 000:877.797 JLINK_WriteReg(R4, 0x00000000)
T5868 000:877.804 - 0.010ms returns 0
T5868 000:877.812 JLINK_WriteReg(R5, 0x00000000)
T5868 000:877.818 - 0.010ms returns 0
T5868 000:877.827 JLINK_WriteReg(R6, 0x00000000)
T5868 000:877.834 - 0.010ms returns 0
T5868 000:877.842 JLINK_WriteReg(R7, 0x00000000)
T5868 000:877.849 - 0.010ms returns 0
T5868 000:877.857 JLINK_WriteReg(R8, 0x00000000)
T5868 000:877.864 - 0.010ms returns 0
T5868 000:877.872 JLINK_WriteReg(R9, 0x20000160)
T5868 000:877.879 - 0.010ms returns 0
T5868 000:877.887 JLINK_WriteReg(R10, 0x00000000)
